               * c:\avkk\waveformgenerator\waveformgenerator.cir
               Transient Analysis  Sat Oct 08 17:51:56  2022
--------------------------------------------------------------------------------
Index   time            v1#branch       v2#branch       v3#branch       
--------------------------------------------------------------------------------
0	0.000000e+00	2.272594e-38	-4.24279e-11	-4.24280e-11	
1	1.000000e-06	7.761161e-20	-4.24279e-11	-4.24282e-11	
2	2.000000e-06	7.841165e-20	-4.24279e-11	-4.24282e-11	
3	4.000000e-06	7.914956e-20	-4.24279e-11	-4.24282e-11	
4	8.000000e-06	1.618222e-19	-4.24279e-11	-4.24282e-11	
5	1.600000e-05	9.326348e-20	-4.24280e-11	-4.24282e-11	
6	3.200000e-05	-1.73508e-19	-4.24280e-11	-4.24282e-11	
7	6.400000e-05	-8.88295e-20	-4.24280e-11	-4.24279e-11	
8	1.000000e-04	-7.64268e-20	-4.24281e-11	-4.24280e-11	
9	1.064000e-04	-2.77182e-10	-2.87321e-12	-2.10746e-10	
10	1.192000e-04	-9.46644e-11	-8.29030e-10	-4.96220e-10	
11	1.397293e-04	-1.99863e-10	-1.00155e-09	-3.67013e-10	
12	1.592087e-04	-1.01885e-10	-1.10867e-09	-5.91064e-10	
13	1.891473e-04	-2.22728e-10	-1.32184e-09	-6.36102e-10	
14	2.000000e-04	-5.25354e-10	3.970281e-11	-5.76743e-10	
15	2.021623e-04	-2.74559e-11	-3.62876e-10	-3.91192e-10	
16	2.064868e-04	-2.20913e-11	-3.47794e-10	-3.67467e-10	
17	2.151359e-04	-1.52921e-11	-3.23400e-10	-3.33956e-10	
18	2.324340e-04	-8.14006e-12	-2.94390e-10	-2.97509e-10	
19	2.670302e-04	-2.16265e-12	-2.78497e-10	-2.78195e-10	
20	3.362227e-04	5.820795e-13	-2.71745e-10	-2.70730e-10	
21	4.746076e-04	1.844670e-13	-2.60834e-10	-2.60736e-10	
22	7.428216e-04	3.831414e-13	-2.43449e-10	-2.42751e-10	
23	1.279250e-03	1.613015e-13	-2.14210e-10	-2.14121e-10	
24	2.352105e-03	2.705579e-13	-1.74840e-10	-1.74341e-10	
25	4.497817e-03	5.260029e-14	-1.30228e-10	-1.30300e-10	
26	8.789241e-03	1.269575e-13	-9.44854e-11	-9.41850e-11	
27	1.737209e-02	-3.19848e-14	-7.10022e-11	-7.12021e-11	
28	3.453778e-02	7.793419e-14	-6.17925e-11	-6.15699e-11	
29	6.886917e-02	-4.52208e-14	-6.03043e-11	-6.05242e-11	
30	1.002000e-01	9.029236e-14	-6.08262e-11	-6.06078e-11	
31	1.002100e-01	3.899429e-10	-1.87432e-10	6.160696e-11	
32	1.002300e-01	3.289308e-10	-5.23422e-11	7.947945e-11	
33	1.002700e-01	7.612964e-10	-2.20380e-10	1.425590e-10	
34	1.003000e-01	4.020995e-10	-8.46812e-11	8.193036e-11	
35	1.003048e-01	6.141868e-12	-7.99188e-11	-7.57811e-11	
36	1.003145e-01	5.314830e-12	-7.25250e-11	-6.94329e-11	
37	1.003339e-01	3.515541e-12	-6.16067e-11	-6.05122e-11	
38	1.003727e-01	1.282479e-12	-4.84442e-11	-4.98536e-11	
39	1.004502e-01	-8.95313e-13	-3.63921e-11	-4.02861e-11	
40	1.006052e-01	-2.41741e-12	-2.91174e-11	-3.47960e-11	
41	1.009152e-01	-3.18058e-12	-2.54543e-11	-3.19650e-11	
42	1.015353e-01	-3.09653e-12	-2.45636e-11	-3.07430e-11	
43	1.027754e-01	-2.57939e-12	-2.45658e-11	-2.97224e-11	
44	1.052557e-01	-1.88549e-12	-2.48734e-11	-2.86340e-11	
45	1.102163e-01	-1.09048e-12	-2.64045e-11	-2.85706e-11	
46	1.201374e-01	-4.34139e-13	-3.02278e-11	-3.10784e-11	
47	1.399797e-01	-5.74827e-15	-3.64629e-11	-3.64655e-11	
48	1.796642e-01	-5.97824e-14	-4.06414e-11	-4.07560e-11	
49	2.001000e-01	4.468078e-14	-4.04712e-11	-4.03822e-11	
50	2.001100e-01	-2.56429e-10	-8.41032e-11	-2.41233e-10	
51	2.001300e-01	-7.57380e-11	-1.23494e-09	-5.34035e-10	
52	2.001641e-01	-2.17926e-10	-8.93308e-10	-4.37318e-10	
53	2.001961e-01	-1.62450e-10	-1.40591e-09	-8.26330e-10	
54	2.002000e-01	-9.17559e-10	1.019494e-09	-2.93844e-10	

Index   time            v1#branch       v2#branch       v3#branch       
--------------------------------------------------------------------------------
55	2.002008e-01	-2.19001e-11	-4.05212e-10	-4.22856e-10	
56	2.002023e-01	-1.98293e-11	-4.01947e-10	-4.15080e-10	
57	2.002054e-01	-1.81155e-11	-3.86127e-10	-3.99714e-10	
58	2.002116e-01	-1.28770e-11	-3.73292e-10	-3.78500e-10	
59	2.002239e-01	-8.62227e-12	-3.46753e-10	-3.51386e-10	
60	2.002486e-01	-2.14177e-12	-3.35788e-10	-3.33415e-10	
61	2.002979e-01	-1.28293e-13	-3.22344e-10	-3.23163e-10	
62	2.003965e-01	9.262383e-13	-3.15383e-10	-3.13061e-10	
63	2.005938e-01	-1.65208e-13	-2.91050e-10	-2.92378e-10	
64	2.009884e-01	8.487482e-13	-2.63260e-10	-2.60920e-10	
65	2.017776e-01	-2.95344e-13	-2.12368e-10	-2.13920e-10	
66	2.033560e-01	7.097482e-13	-1.63014e-10	-1.60881e-10	
67	2.065128e-01	-4.38680e-13	-1.11067e-10	-1.12857e-10	
68	2.128263e-01	5.735828e-13	-8.29411e-11	-8.09870e-11	
69	2.254534e-01	-5.18988e-13	-6.22122e-11	-6.41162e-11	
70	2.507076e-01	5.495257e-13	-6.27610e-11	-6.08488e-11	
71	3.002000e-01	-5.18616e-13	-5.78386e-11	-5.97512e-11	
72	3.002100e-01	3.899743e-10	-1.87394e-10	6.157473e-11	
73	3.002300e-01	3.286419e-10	-5.20850e-11	7.949733e-11	
74	3.002700e-01	7.614027e-10	-2.20253e-10	1.427090e-10	
75	3.003000e-01	4.018911e-10	-8.44454e-11	8.202459e-11	
76	3.003048e-01	6.110085e-12	-7.97800e-11	-7.56823e-11	
77	3.003145e-01	5.287934e-12	-7.24243e-11	-6.93674e-11	
78	3.003339e-01	3.494818e-12	-6.15546e-11	-6.04894e-11	
79	3.003726e-01	1.267523e-12	-4.84408e-11	-4.98737e-11	
80	3.004501e-01	-9.07017e-13	-3.64219e-11	-4.03364e-11	
81	3.006050e-01	-2.42780e-12	-2.91606e-11	-3.48581e-11	
82	3.009148e-01	-3.18907e-12	-2.55045e-11	-3.20316e-11	
83	3.015344e-01	-3.10234e-12	-2.46143e-11	-3.08055e-11	
84	3.027737e-01	-2.58313e-12	-2.46107e-11	-2.97749e-11	
85	3.052523e-01	-1.88718e-12	-2.49077e-11	-2.86714e-11	
86	3.102095e-01	-1.09041e-12	-2.64291e-11	-2.85952e-11	
87	3.201238e-01	-4.33626e-13	-3.02409e-11	-3.10906e-11	
88	3.399524e-01	-5.57423e-15	-3.64655e-11	-3.64680e-11	
89	3.796096e-01	-5.99390e-14	-4.06396e-11	-4.07549e-11	
90	4.001000e-01	4.479899e-14	-4.04703e-11	-4.03811e-11	
91	4.001100e-01	-2.56429e-10	-8.41003e-11	-2.41232e-10	
92	4.001300e-01	-7.57377e-11	-1.23494e-09	-5.34033e-10	
93	4.001641e-01	-2.17923e-10	-8.93300e-10	-4.37311e-10	
94	4.001961e-01	-1.62435e-10	-1.40592e-09	-8.26323e-10	
95	4.002000e-01	-9.17544e-10	1.019524e-09	-2.93825e-10	
96	4.002008e-01	-2.18968e-11	-4.05193e-10	-4.22841e-10	
97	4.002023e-01	-1.98232e-11	-4.01936e-10	-4.15067e-10	
98	4.002054e-01	-1.81257e-11	-3.86102e-10	-3.99698e-10	
99	4.002116e-01	-1.28601e-11	-3.73283e-10	-3.78486e-10	
100	4.002239e-01	-8.62560e-12	-3.46730e-10	-3.51369e-10	
101	4.002486e-01	-2.13900e-12	-3.35781e-10	-3.33402e-10	
102	4.002979e-01	-1.40020e-13	-3.22322e-10	-3.23148e-10	
103	4.003965e-01	9.245729e-13	-3.15378e-10	-3.13049e-10	
104	4.005939e-01	-1.61690e-13	-2.91029e-10	-2.92364e-10	
105	4.009885e-01	8.639686e-13	-2.63256e-10	-2.60909e-10	
106	4.017777e-01	-3.01089e-13	-2.12349e-10	-2.13908e-10	
107	4.033563e-01	7.107266e-13	-1.63012e-10	-1.60873e-10	
108	4.065133e-01	-4.41661e-13	-1.11053e-10	-1.12850e-10	
109	4.128274e-01	5.762300e-13	-8.29459e-11	-8.09852e-11	
110	4.254555e-01	-5.22003e-13	-6.22036e-11	-6.41137e-11	
111	4.507119e-01	5.523776e-13	-6.27684e-11	-6.08499e-11	
112	5.002000e-01	-5.21670e-13	-5.78317e-11	-5.97503e-11	

Index   time            v1#branch       v2#branch       v3#branch       
--------------------------------------------------------------------------------
113	5.002100e-01	3.899743e-10	-1.87394e-10	6.157469e-11	
114	5.002300e-01	3.286419e-10	-5.20854e-11	7.949714e-11	
115	5.002700e-01	7.614025e-10	-2.20253e-10	1.427086e-10	
116	5.003000e-01	4.018911e-10	-8.44457e-11	8.202485e-11	
117	5.003048e-01	6.110154e-12	-7.97801e-11	-7.56824e-11	
118	5.003145e-01	5.288006e-12	-7.24245e-11	-6.93676e-11	
119	5.003339e-01	3.494832e-12	-6.15550e-11	-6.04893e-11	
120	5.003726e-01	1.267539e-12	-4.84409e-11	-4.98735e-11	
121	5.004501e-01	-9.07041e-13	-3.64219e-11	-4.03363e-11	
122	5.006050e-01	-2.42778e-12	-2.91609e-11	-3.48584e-11	
123	5.009148e-01	-3.18907e-12	-2.55046e-11	-3.20314e-11	
124	5.015344e-01	-3.10235e-12	-2.46141e-11	-3.08055e-11	
125	5.027737e-01	-2.58313e-12	-2.46107e-11	-2.97747e-11	
126	5.052523e-01	-1.88718e-12	-2.49076e-11	-2.86715e-11	
127	5.102095e-01	-1.09040e-12	-2.64292e-11	-2.85952e-11	
128	5.201238e-01	-4.33631e-13	-3.02410e-11	-3.10907e-11	
129	5.399524e-01	-5.57145e-15	-3.64656e-11	-3.64681e-11	
130	5.796096e-01	-5.99413e-14	-4.06400e-11	-4.07548e-11	
131	6.001000e-01	4.480101e-14	-4.04705e-11	-4.03807e-11	
132	6.001100e-01	-2.56429e-10	-8.41005e-11	-2.41232e-10	
133	6.001300e-01	-7.57378e-11	-1.23494e-09	-5.34033e-10	
134	6.001641e-01	-2.17924e-10	-8.93301e-10	-4.37311e-10	
135	6.001961e-01	-1.62437e-10	-1.40592e-09	-8.26322e-10	
136	6.002000e-01	-9.17546e-10	1.019522e-09	-2.93826e-10	
137	6.002008e-01	-2.19025e-11	-4.05195e-10	-4.22841e-10	
138	6.002023e-01	-1.98291e-11	-4.01937e-10	-4.15067e-10	
139	6.002054e-01	-1.81109e-11	-3.86102e-10	-3.99699e-10	
140	6.002116e-01	-1.28702e-11	-3.73284e-10	-3.78487e-10	
141	6.002239e-01	-8.62232e-12	-3.46730e-10	-3.51369e-10	
142	6.002486e-01	-2.12853e-12	-3.35782e-10	-3.33402e-10	
143	6.002979e-01	-1.34746e-13	-3.22323e-10	-3.23148e-10	
144	6.003965e-01	9.275393e-13	-3.15378e-10	-3.13049e-10	
145	6.005939e-01	-1.77799e-13	-2.91029e-10	-2.92365e-10	
146	6.009885e-01	8.648637e-13	-2.63256e-10	-2.60909e-10	
147	6.017777e-01	-3.00635e-13	-2.12349e-10	-2.13908e-10	
148	6.033562e-01	7.112019e-13	-1.63014e-10	-1.60874e-10	
149	6.065132e-01	-4.41942e-13	-1.11053e-10	-1.12850e-10	
150	6.128273e-01	5.760496e-13	-8.29470e-11	-8.09856e-11	
151	6.254553e-01	-5.22072e-13	-6.22033e-11	-6.41136e-11	
152	6.507113e-01	5.525892e-13	-6.27688e-11	-6.08501e-11	
153	7.002000e-01	-5.21850e-13	-5.78307e-11	-5.97505e-11	
154	7.002100e-01	3.899742e-10	-1.87394e-10	6.157491e-11	
155	7.002300e-01	3.286420e-10	-5.20849e-11	7.949713e-11	
156	7.002700e-01	7.614026e-10	-2.20253e-10	1.427089e-10	
157	7.003000e-01	4.018912e-10	-8.44455e-11	8.202475e-11	
158	7.003048e-01	6.110124e-12	-7.97799e-11	-7.56826e-11	
159	7.003145e-01	5.287939e-12	-7.24245e-11	-6.93676e-11	
160	7.003339e-01	3.494828e-12	-6.15550e-11	-6.04892e-11	
161	7.003726e-01	1.267500e-12	-4.84410e-11	-4.98736e-11	
162	7.004501e-01	-9.07023e-13	-3.64220e-11	-4.03363e-11	
163	7.006050e-01	-2.42780e-12	-2.91608e-11	-3.48583e-11	
164	7.009148e-01	-3.18906e-12	-2.55046e-11	-3.20315e-11	
165	7.015344e-01	-3.10234e-12	-2.46142e-11	-3.08053e-11	
166	7.027737e-01	-2.58314e-12	-2.46107e-11	-2.97748e-11	
167	7.052523e-01	-1.88718e-12	-2.49076e-11	-2.86713e-11	
168	7.102095e-01	-1.09040e-12	-2.64291e-11	-2.85952e-11	
169	7.201238e-01	-4.33630e-13	-3.02411e-11	-3.10908e-11	
170	7.399524e-01	-5.57024e-15	-3.64656e-11	-3.64679e-11	

Index   time            v1#branch       v2#branch       v3#branch       
--------------------------------------------------------------------------------
171	7.796097e-01	-5.99422e-14	-4.06398e-11	-4.07546e-11	
172	8.001000e-01	4.480162e-14	-4.04705e-11	-4.03808e-11	
173	8.001100e-01	-2.56429e-10	-8.41007e-11	-2.41232e-10	
174	8.001300e-01	-7.57378e-11	-1.23494e-09	-5.34033e-10	
175	8.001641e-01	-2.17924e-10	-8.93301e-10	-4.37311e-10	
176	8.001961e-01	-1.62437e-10	-1.40592e-09	-8.26322e-10	
177	8.002000e-01	-9.17543e-10	1.019521e-09	-2.93826e-10	
178	8.002008e-01	-2.18937e-11	-4.05195e-10	-4.22842e-10	
179	8.002023e-01	-1.98203e-11	-4.01937e-10	-4.15067e-10	
180	8.002054e-01	-1.81244e-11	-3.86102e-10	-3.99699e-10	
181	8.002116e-01	-1.28590e-11	-3.73284e-10	-3.78487e-10	
182	8.002239e-01	-8.61693e-12	-3.46731e-10	-3.51369e-10	
183	8.002486e-01	-2.14322e-12	-3.35782e-10	-3.33403e-10	
184	8.002979e-01	-1.33633e-13	-3.22322e-10	-3.23148e-10	
185	8.003965e-01	9.278585e-13	-3.15379e-10	-3.13049e-10	
186	8.005939e-01	-1.77646e-13	-2.91029e-10	-2.92365e-10	
187	8.009885e-01	8.652037e-13	-2.63256e-10	-2.60909e-10	
188	8.017777e-01	-3.00811e-13	-2.12350e-10	-2.13909e-10	
189	8.033562e-01	7.114899e-13	-1.63014e-10	-1.60874e-10	
190	8.065132e-01	-4.41862e-13	-1.11053e-10	-1.12850e-10	
191	8.128272e-01	5.761294e-13	-8.29469e-11	-8.09857e-11	
192	8.254552e-01	-5.22082e-13	-6.22035e-11	-6.41137e-11	
193	8.507112e-01	5.526447e-13	-6.27689e-11	-6.08498e-11	
194	9.002000e-01	-5.21905e-13	-5.78307e-11	-5.97506e-11	
195	9.002100e-01	3.899743e-10	-1.87394e-10	6.157471e-11	
196	9.002300e-01	3.286419e-10	-5.20852e-11	7.949723e-11	
197	9.002700e-01	7.614027e-10	-2.20253e-10	1.427087e-10	
198	9.003000e-01	4.018911e-10	-8.44454e-11	8.202467e-11	
199	9.003048e-01	6.110156e-12	-7.97800e-11	-7.56824e-11	
200	9.003145e-01	5.287987e-12	-7.24243e-11	-6.93674e-11	
201	9.003339e-01	3.494804e-12	-6.15546e-11	-6.04892e-11	
202	9.003726e-01	1.267564e-12	-4.84407e-11	-4.98737e-11	
203	9.004501e-01	-9.07043e-13	-3.64220e-11	-4.03362e-11	
204	9.006050e-01	-2.42779e-12	-2.91607e-11	-3.48584e-11	
205	9.009148e-01	-3.18906e-12	-2.55045e-11	-3.20315e-11	
206	9.015344e-01	-3.10235e-12	-2.46142e-11	-3.08055e-11	
207	9.027737e-01	-2.58313e-12	-2.46107e-11	-2.97747e-11	
208	9.052523e-01	-1.88718e-12	-2.49076e-11	-2.86714e-11	
209	9.102095e-01	-1.09040e-12	-2.64291e-11	-2.85952e-11	
210	9.201238e-01	-4.33631e-13	-3.02409e-11	-3.10906e-11	
211	9.399524e-01	-5.57189e-15	-3.64656e-11	-3.64679e-11	
212	9.796096e-01	-5.99410e-14	-4.06398e-11	-4.07550e-11	
213	1.000100e+00	4.480075e-14	-4.04704e-11	-4.03809e-11	
214	1.000110e+00	-2.56429e-10	-8.41008e-11	-2.41232e-10	
215	1.000130e+00	-7.57378e-11	-1.23494e-09	-5.34033e-10	
216	1.000164e+00	-2.17924e-10	-8.93301e-10	-4.37311e-10	
217	1.000196e+00	-1.62436e-10	-1.40592e-09	-8.26322e-10	
218	1.000200e+00	-9.17539e-10	1.019522e-09	-2.93826e-10	
219	1.000201e+00	-2.19035e-11	-4.05195e-10	-4.22842e-10	
220	1.000202e+00	-1.98301e-11	-4.01937e-10	-4.15067e-10	
221	1.000205e+00	-1.81202e-11	-3.86102e-10	-3.99699e-10	
222	1.000212e+00	-1.28573e-11	-3.73284e-10	-3.78487e-10	
223	1.000224e+00	-8.62466e-12	-3.46731e-10	-3.51369e-10	
224	1.000249e+00	-2.12969e-12	-3.35782e-10	-3.33402e-10	
225	1.000298e+00	-1.35607e-13	-3.22322e-10	-3.23148e-10	
226	1.000397e+00	9.270362e-13	-3.15378e-10	-3.13049e-10	
227	1.000594e+00	-1.77889e-13	-2.91029e-10	-2.92364e-10	
228	1.000988e+00	8.649817e-13	-2.63256e-10	-2.60909e-10	

Index   time            v1#branch       v2#branch       v3#branch       
--------------------------------------------------------------------------------
229	1.001778e+00	-3.00811e-13	-2.12349e-10	-2.13908e-10	
230	1.003356e+00	7.111013e-13	-1.63014e-10	-1.60874e-10	
231	1.006513e+00	-4.41952e-13	-1.11053e-10	-1.12850e-10	
232	1.012827e+00	5.765458e-13	-8.29467e-11	-8.09856e-11	
233	1.025455e+00	-5.22048e-13	-6.22036e-11	-6.41140e-11	
234	1.050711e+00	5.525615e-13	-6.27688e-11	-6.08498e-11	
235	1.100200e+00	-5.21829e-13	-5.78311e-11	-5.97507e-11	
236	1.100210e+00	3.899744e-10	-1.87394e-10	6.157497e-11	
237	1.100230e+00	3.286416e-10	-5.20851e-11	7.949715e-11	
238	1.100270e+00	7.614026e-10	-2.20253e-10	1.427087e-10	
239	1.100300e+00	4.018910e-10	-8.44450e-11	8.202455e-11	
240	1.100305e+00	6.110135e-12	-7.97801e-11	-7.56823e-11	
241	1.100315e+00	5.287967e-12	-7.24245e-11	-6.93676e-11	
242	1.100334e+00	3.494799e-12	-6.15548e-11	-6.04891e-11	
243	1.100373e+00	1.267532e-12	-4.84406e-11	-4.98736e-11	
244	1.100450e+00	-9.07023e-13	-3.64222e-11	-4.03364e-11	
245	1.100605e+00	-2.42778e-12	-2.91609e-11	-3.48584e-11	
246	1.100915e+00	-3.18906e-12	-2.55045e-11	-3.20316e-11	
247	1.101534e+00	-3.10233e-12	-2.46142e-11	-3.08053e-11	
248	1.102774e+00	-2.58314e-12	-2.46107e-11	-2.97748e-11	
249	1.105252e+00	-1.88718e-12	-2.49077e-11	-2.86714e-11	
250	1.110209e+00	-1.09041e-12	-2.64292e-11	-2.85951e-11	
251	1.120124e+00	-4.33621e-13	-3.02411e-11	-3.10908e-11	
252	1.139952e+00	-5.57863e-15	-3.64655e-11	-3.64680e-11	
253	1.179610e+00	-5.99353e-14	-4.06398e-11	-4.07548e-11	
254	1.200100e+00	4.479579e-14	-4.04705e-11	-4.03809e-11	
255	1.200110e+00	-2.56429e-10	-8.40999e-11	-2.41231e-10	
256	1.200130e+00	-7.57376e-11	-1.23494e-09	-5.34033e-10	
257	1.200164e+00	-2.17923e-10	-8.93300e-10	-4.37310e-10	
258	1.200196e+00	-1.62449e-10	-1.40593e-09	-8.26324e-10	
259	1.200200e+00	-9.17545e-10	1.019526e-09	-2.93824e-10	
260	1.200201e+00	-2.19032e-11	-4.05192e-10	-4.22841e-10	
261	1.200202e+00	-1.98300e-11	-4.01934e-10	-4.15066e-10	
262	1.200205e+00	-1.81277e-11	-3.86101e-10	-3.99698e-10	
263	1.200212e+00	-1.28618e-11	-3.73282e-10	-3.78486e-10	
264	1.200224e+00	-8.61732e-12	-3.46731e-10	-3.51368e-10	
265	1.200249e+00	-2.13483e-12	-3.35781e-10	-3.33402e-10	
266	1.200298e+00	-1.46719e-13	-3.22323e-10	-3.23148e-10	
267	1.200397e+00	9.210271e-13	-3.15377e-10	-3.13049e-10	
268	1.200594e+00	-1.63525e-13	-2.91029e-10	-2.92364e-10	
269	1.200988e+00	8.626225e-13	-2.63254e-10	-2.60908e-10	
270	1.201778e+00	-3.01426e-13	-2.12349e-10	-2.13907e-10	
271	1.203356e+00	7.105393e-13	-1.63010e-10	-1.60872e-10	
272	1.206513e+00	-4.41973e-13	-1.11053e-10	-1.12849e-10	
273	1.212828e+00	5.757443e-13	-8.29447e-11	-8.09846e-11	
274	1.225456e+00	-5.21364e-13	-6.22042e-11	-6.41136e-11	
275	1.250712e+00	5.521070e-13	-6.27680e-11	-6.08498e-11	
276	1.300200e+00	-5.21420e-13	-5.78321e-11	-5.97507e-11	
277	1.300210e+00	3.899743e-10	-1.87394e-10	6.157471e-11	
278	1.300230e+00	3.286418e-10	-5.20853e-11	7.949702e-11	
279	1.300270e+00	7.614025e-10	-2.20253e-10	1.427086e-10	
280	1.300300e+00	4.018911e-10	-8.44453e-11	8.202471e-11	
281	1.300305e+00	6.110139e-12	-7.97800e-11	-7.56824e-11	
282	1.300315e+00	5.287962e-12	-7.24244e-11	-6.93674e-11	
283	1.300334e+00	3.494818e-12	-6.15548e-11	-6.04893e-11	
284	1.300373e+00	1.267526e-12	-4.84409e-11	-4.98738e-11	
285	1.300450e+00	-9.07065e-13	-3.64219e-11	-4.03366e-11	
286	1.300605e+00	-2.42776e-12	-2.91608e-11	-3.48585e-11	

Index   time            v1#branch       v2#branch       v3#branch       
--------------------------------------------------------------------------------
287	1.300915e+00	-3.18908e-12	-2.55045e-11	-3.20315e-11	
288	1.301534e+00	-3.10235e-12	-2.46142e-11	-3.08054e-11	
289	1.302774e+00	-2.58313e-12	-2.46106e-11	-2.97747e-11	
290	1.305252e+00	-1.88718e-12	-2.49076e-11	-2.86713e-11	
291	1.310209e+00	-1.09040e-12	-2.64290e-11	-2.85953e-11	
292	1.320124e+00	-4.33631e-13	-3.02409e-11	-3.10907e-11	
293	1.339952e+00	-5.57175e-15	-3.64655e-11	-3.64681e-11	
294	1.379610e+00	-5.99411e-14	-4.06400e-11	-4.07549e-11	
295	1.400100e+00	4.480073e-14	-4.04703e-11	-4.03808e-11	
296	1.400110e+00	-2.56429e-10	-8.41007e-11	-2.41232e-10	
297	1.400130e+00	-7.57378e-11	-1.23494e-09	-5.34033e-10	
298	1.400164e+00	-2.17924e-10	-8.93301e-10	-4.37311e-10	
299	1.400196e+00	-1.62437e-10	-1.40592e-09	-8.26322e-10	
300	1.400200e+00	-9.17540e-10	1.019522e-09	-2.93826e-10	
301	1.400201e+00	-2.19060e-11	-4.05194e-10	-4.22841e-10	
302	1.400202e+00	-1.98328e-11	-4.01937e-10	-4.15067e-10	
303	1.400205e+00	-1.81218e-11	-3.86101e-10	-3.99698e-10	
304	1.400212e+00	-1.28581e-11	-3.73284e-10	-3.78487e-10	
305	1.400224e+00	-8.62466e-12	-3.46730e-10	-3.51369e-10	
306	1.400249e+00	-2.12939e-12	-3.35782e-10	-3.33402e-10	
307	1.400298e+00	-1.35517e-13	-3.22322e-10	-3.23148e-10	
308	1.400397e+00	9.268385e-13	-3.15378e-10	-3.13049e-10	
309	1.400594e+00	-1.78007e-13	-2.91029e-10	-2.92364e-10	
310	1.400988e+00	8.649054e-13	-2.63256e-10	-2.60909e-10	
311	1.401778e+00	-3.00818e-13	-2.12350e-10	-2.13908e-10	
312	1.403356e+00	7.110909e-13	-1.63014e-10	-1.60874e-10	
313	1.406513e+00	-4.41962e-13	-1.11053e-10	-1.12850e-10	
314	1.412827e+00	5.759941e-13	-8.29467e-11	-8.09856e-11	
315	1.425455e+00	-5.22048e-13	-6.22036e-11	-6.41140e-11	
316	1.450711e+00	5.525615e-13	-6.27690e-11	-6.08499e-11	
317	1.500200e+00	-5.21829e-13	-5.78307e-11	-5.97506e-11	
318	1.500210e+00	3.899743e-10	-1.87394e-10	6.157498e-11	
319	1.500230e+00	3.286417e-10	-5.20850e-11	7.949718e-11	
320	1.500270e+00	7.614028e-10	-2.20253e-10	1.427089e-10	
321	1.500300e+00	4.018910e-10	-8.44453e-11	8.202470e-11	
322	1.500305e+00	6.110140e-12	-7.97799e-11	-7.56824e-11	
323	1.500315e+00	5.287950e-12	-7.24243e-11	-6.93675e-11	
324	1.500334e+00	3.494840e-12	-6.15550e-11	-6.04893e-11	
325	1.500373e+00	1.267532e-12	-4.84412e-11	-4.98736e-11	
